INFO: [COSIM-47] Using XSIM for RTL simulation.
INFO: [COSIM-14] Instrumenting C test bench ...
   Build using "C:/ProgramData/Xilinx/Vitis_HLS/2023.2/tps/win64/msys64/mingw64/bin/g++"
   Compiling test_core.cpp_pre.cpp.tb.cpp
   Compiling apatb_setMem.cpp
   Compiling core.cpp_pre.cpp.tb.cpp
   Compiling apatb_setMem_ir.ll
   Generating cosim.tv.exe
INFO: [COSIM-302] Starting C TB testing ... 
INFO: [COSIM-333] Generating C post check test bench ...
INFO: [COSIM-12] Generating RTL test bench ...
INFO: [COSIM-1] *** C/RTL co-simulation file generation completed. ***
INFO: [COSIM-322] Starting VHDL simulation. 
INFO: [COSIM-15] Starting XSIM ...
INFO: [COSIM-316] Starting C post checking ...


A = 0 B = 0 RES = 27, OP = 0 
A = 2 B = 1 RES = 28, OP = 1 
A = 4 B = 2 RES = 8, OP = 2 
A = 6 B = 3 RES = 6, OP = 3 
A = 8 B = 4 RES = 4, OP = 4 
A = 10 B = 5 RES = 2, OP = 5 
A = 12 B = 6 RES = 18, OP = 6 
A = 14 B = 7 RES = 7, OP = 7 
A = 16 B = 8 RES = 128, OP = 8 
A = 18 B = 9 RES = 2, OP = 9 
A = 20 B = 10 RES = 47, OP = 0 
A = 22 B = 11 RES = 38, OP = 1 
A = 24 B = 12 RES = 48, OP = 2 
A = 26 B = 13 RES = 26, OP = 3 
A = 28 B = 14 RES = 14, OP = 4 
A = 30 B = 15 RES = 7, OP = 5 
A = 32 B = 16 RES = 48, OP = 6 
A = 34 B = 17 RES = 17, OP = 7 
A = 36 B = 18 RES = 648, OP = 8 
A = 38 B = 19 RES = 2, OP = 9 
A = 40 B = 20 RES = 67, OP = 0 
A = 42 B = 21 RES = 48, OP = 1 
A = 44 B = 22 RES = 88, OP = 2 
A = 46 B = 23 RES = 46, OP = 3 
A = 48 B = 24 RES = 24, OP = 4 
A = 50 B = 25 RES = 12, OP = 5 
A = 52 B = 26 RES = 78, OP = 6 
A = 54 B = 27 RES = 27, OP = 7 
A = 56 B = 28 RES = 1568, OP = 8 
A = 58 B = 29 RES = 2, OP = 9 
A = 60 B = 30 RES = 87, OP = 0 
A = 62 B = 31 RES = 58, OP = 1 
A = 64 B = 32 RES = 128, OP = 2 
A = 66 B = 33 RES = 66, OP = 3 
A = 68 B = 34 RES = 34, OP = 4 
A = 70 B = 35 RES = 17, OP = 5 
A = 72 B = 36 RES = 108, OP = 6 
A = 74 B = 37 RES = 37, OP = 7 
A = 76 B = 38 RES = 2888, OP = 8 
A = 78 B = 39 RES = 2, OP = 9 
A = 80 B = 40 RES = 107, OP = 0 
A = 82 B = 41 RES = 68, OP = 1 
A = 84 B = 42 RES = 168, OP = 2 
A = 86 B = 43 RES = 86, OP = 3 
A = 88 B = 44 RES = 44, OP = 4 
A = 90 B = 45 RES = 22, OP = 5 
A = 92 B = 46 RES = 138, OP = 6 
A = 94 B = 47 RES = 47, OP = 7 
A = 96 B = 48 RES = 4608, OP = 8 
A = 98 B = 49 RES = 2, OP = 9 



C:\Users\marco\Desktop\NECST\NL2\AXI_M\AXI_M\solution1\sim\vhdl>set PATH= 

C:\Users\marco\Desktop\NECST\NL2\AXI_M\AXI_M\solution1\sim\vhdl>call C:/ProgramData/Xilinx/Vivado/2023.2/bin/xelab xil_defaultlib.apatb_setMem_top glbl -Oenable_linking_all_libraries  -prj setMem.prj -L smartconnect_v1_0 -L axi_protocol_checker_v1_1_12 -L axi_protocol_checker_v1_1_13 -L axis_protocol_checker_v1_1_11 -L axis_protocol_checker_v1_1_12 -L xil_defaultlib -L unisims -L unisims_ver -L xpm  -L floating_point_v7_1_16 -L floating_point_v7_0_21 --lib "ieee_proposed=./ieee_proposed" -s setMem -debug all 
ECHO is off.
ECHO is off.
Vivado Simulator v2023.2
Copyright 1986-2022 Xilinx, Inc. All Rights Reserved.
Copyright 2022-2023 Advanced Micro Devices, Inc. All Rights Reserved.
Running: C:/ProgramData/Xilinx/Vivado/2023.2/bin/unwrapped/win64.o/xelab.exe xil_defaultlib.apatb_setMem_top glbl -Oenable_linking_all_libraries -prj setMem.prj -L smartconnect_v1_0 -L axi_protocol_checker_v1_1_12 -L axi_protocol_checker_v1_1_13 -L axis_protocol_checker_v1_1_11 -L axis_protocol_checker_v1_1_12 -L xil_defaultlib -L unisims -L unisims_ver -L xpm -L floating_point_v7_1_16 -L floating_point_v7_0_21 --lib ieee_proposed=./ieee_proposed -s setMem -debug all 
Multi-threading is on. Using 26 slave threads.
Determining compilation order of HDL files.
INFO: [VRFC 10-2263] Analyzing SystemVerilog file "C:/Users/marco/Desktop/NECST/NL2/AXI_M/AXI_M/solution1/sim/vhdl/glbl.v" into library work
INFO: [VRFC 10-311] analyzing module glbl
INFO: [VRFC 10-163] Analyzing VHDL file "C:/Users/marco/Desktop/NECST/NL2/AXI_M/AXI_M/solution1/sim/vhdl/AESL_sim_pkg.vhd" into library xil_defaultlib
INFO: [VRFC 10-163] Analyzing VHDL file "C:/Users/marco/Desktop/NECST/NL2/AXI_M/AXI_M/solution1/sim/vhdl/AESL_axi_master_gmem0.vhd" into library xil_defaultlib
INFO: [VRFC 10-3107] analyzing entity 'AESL_axi_master_gmem0'
INFO: [VRFC 10-163] Analyzing VHDL file "C:/Users/marco/Desktop/NECST/NL2/AXI_M/AXI_M/solution1/sim/vhdl/AESL_axi_master_gmem1.vhd" into library xil_defaultlib
INFO: [VRFC 10-3107] analyzing entity 'AESL_axi_master_gmem1'
INFO: [VRFC 10-163] Analyzing VHDL file "C:/Users/marco/Desktop/NECST/NL2/AXI_M/AXI_M/solution1/sim/vhdl/AESL_axi_master_gmem2.vhd" into library xil_defaultlib
INFO: [VRFC 10-3107] analyzing entity 'AESL_axi_master_gmem2'
INFO: [VRFC 10-163] Analyzing VHDL file "C:/Users/marco/Desktop/NECST/NL2/AXI_M/AXI_M/solution1/sim/vhdl/AESL_axi_master_gmem3.vhd" into library xil_defaultlib
INFO: [VRFC 10-3107] analyzing entity 'AESL_axi_master_gmem3'
INFO: [VRFC 10-163] Analyzing VHDL file "C:/Users/marco/Desktop/NECST/NL2/AXI_M/AXI_M/solution1/sim/vhdl/AESL_axi_slave_control.vhd" into library xil_defaultlib
INFO: [VRFC 10-3107] analyzing entity 'AESL_axi_slave_control'
INFO: [VRFC 10-163] Analyzing VHDL file "C:/Users/marco/Desktop/NECST/NL2/AXI_M/AXI_M/solution1/sim/vhdl/setMem.autotb.vhd" into library xil_defaultlib
INFO: [VRFC 10-3107] analyzing entity 'apatb_setMem_top'
INFO: [VRFC 10-163] Analyzing VHDL file "C:/Users/marco/Desktop/NECST/NL2/AXI_M/AXI_M/solution1/sim/vhdl/setMem.vhd" into library xil_defaultlib
INFO: [VRFC 10-3107] analyzing entity 'setMem'
INFO: [VRFC 10-163] Analyzing VHDL file "C:/Users/marco/Desktop/NECST/NL2/AXI_M/AXI_M/solution1/sim/vhdl/setMem_control_s_axi.vhd" into library xil_defaultlib
INFO: [VRFC 10-3107] analyzing entity 'setMem_control_s_axi'
INFO: [VRFC 10-163] Analyzing VHDL file "C:/Users/marco/Desktop/NECST/NL2/AXI_M/AXI_M/solution1/sim/vhdl/setMem_data_a_RAM_AUTO_1R1W.vhd" into library xil_defaultlib
INFO: [VRFC 10-3107] analyzing entity 'setMem_data_a_RAM_AUTO_1R1W'
INFO: [VRFC 10-163] Analyzing VHDL file "C:/Users/marco/Desktop/NECST/NL2/AXI_M/AXI_M/solution1/sim/vhdl/setMem_flow_control_loop_pipe_sequential_init.vhd" into library xil_defaultlib
INFO: [VRFC 10-3107] analyzing entity 'setMem_flow_control_loop_pipe_sequential_init'
INFO: [VRFC 10-163] Analyzing VHDL file "C:/Users/marco/Desktop/NECST/NL2/AXI_M/AXI_M/solution1/sim/vhdl/setMem_gmem0_m_axi.vhd" into library xil_defaultlib
INFO: [VRFC 10-3107] analyzing entity 'setMem_gmem0_m_axi'
INFO: [VRFC 10-3107] analyzing entity 'setMem_gmem0_m_axi_load'
INFO: [VRFC 10-3107] analyzing entity 'setMem_gmem0_m_axi_store'
INFO: [VRFC 10-3107] analyzing entity 'setMem_gmem0_m_axi_read'
INFO: [VRFC 10-3107] analyzing entity 'setMem_gmem0_m_axi_write'
INFO: [VRFC 10-3107] analyzing entity 'setMem_gmem0_m_axi_burst_converter'
INFO: [VRFC 10-3107] analyzing entity 'setMem_gmem0_m_axi_throttle'
INFO: [VRFC 10-3107] analyzing entity 'setMem_gmem0_m_axi_reg_slice'
INFO: [VRFC 10-3107] analyzing entity 'setMem_gmem0_m_axi_fifo'
INFO: [VRFC 10-3107] analyzing entity 'setMem_gmem0_m_axi_srl'
INFO: [VRFC 10-3107] analyzing entity 'setMem_gmem0_m_axi_mem'
INFO: [VRFC 10-163] Analyzing VHDL file "C:/Users/marco/Desktop/NECST/NL2/AXI_M/AXI_M/solution1/sim/vhdl/setMem_gmem1_m_axi.vhd" into library xil_defaultlib
INFO: [VRFC 10-3107] analyzing entity 'setMem_gmem1_m_axi'
INFO: [VRFC 10-3107] analyzing entity 'setMem_gmem1_m_axi_load'
INFO: [VRFC 10-3107] analyzing entity 'setMem_gmem1_m_axi_store'
INFO: [VRFC 10-3107] analyzing entity 'setMem_gmem1_m_axi_read'
INFO: [VRFC 10-3107] analyzing entity 'setMem_gmem1_m_axi_write'
INFO: [VRFC 10-3107] analyzing entity 'setMem_gmem1_m_axi_burst_converter'
INFO: [VRFC 10-3107] analyzing entity 'setMem_gmem1_m_axi_throttle'
INFO: [VRFC 10-3107] analyzing entity 'setMem_gmem1_m_axi_reg_slice'
INFO: [VRFC 10-3107] analyzing entity 'setMem_gmem1_m_axi_fifo'
INFO: [VRFC 10-3107] analyzing entity 'setMem_gmem1_m_axi_srl'
INFO: [VRFC 10-3107] analyzing entity 'setMem_gmem1_m_axi_mem'
INFO: [VRFC 10-163] Analyzing VHDL file "C:/Users/marco/Desktop/NECST/NL2/AXI_M/AXI_M/solution1/sim/vhdl/setMem_gmem2_m_axi.vhd" into library xil_defaultlib
INFO: [VRFC 10-3107] analyzing entity 'setMem_gmem2_m_axi'
INFO: [VRFC 10-3107] analyzing entity 'setMem_gmem2_m_axi_load'
INFO: [VRFC 10-3107] analyzing entity 'setMem_gmem2_m_axi_store'
INFO: [VRFC 10-3107] analyzing entity 'setMem_gmem2_m_axi_read'
INFO: [VRFC 10-3107] analyzing entity 'setMem_gmem2_m_axi_write'
INFO: [VRFC 10-3107] analyzing entity 'setMem_gmem2_m_axi_burst_converter'
INFO: [VRFC 10-3107] analyzing entity 'setMem_gmem2_m_axi_throttle'
INFO: [VRFC 10-3107] analyzing entity 'setMem_gmem2_m_axi_reg_slice'
INFO: [VRFC 10-3107] analyzing entity 'setMem_gmem2_m_axi_fifo'
INFO: [VRFC 10-3107] analyzing entity 'setMem_gmem2_m_axi_srl'
INFO: [VRFC 10-3107] analyzing entity 'setMem_gmem2_m_axi_mem'
INFO: [VRFC 10-163] Analyzing VHDL file "C:/Users/marco/Desktop/NECST/NL2/AXI_M/AXI_M/solution1/sim/vhdl/setMem_gmem3_m_axi.vhd" into library xil_defaultlib
INFO: [VRFC 10-3107] analyzing entity 'setMem_gmem3_m_axi'
INFO: [VRFC 10-3107] analyzing entity 'setMem_gmem3_m_axi_load'
INFO: [VRFC 10-3107] analyzing entity 'setMem_gmem3_m_axi_store'
INFO: [VRFC 10-3107] analyzing entity 'setMem_gmem3_m_axi_read'
INFO: [VRFC 10-3107] analyzing entity 'setMem_gmem3_m_axi_write'
INFO: [VRFC 10-3107] analyzing entity 'setMem_gmem3_m_axi_burst_converter'
INFO: [VRFC 10-3107] analyzing entity 'setMem_gmem3_m_axi_throttle'
INFO: [VRFC 10-3107] analyzing entity 'setMem_gmem3_m_axi_reg_slice'
INFO: [VRFC 10-3107] analyzing entity 'setMem_gmem3_m_axi_fifo'
INFO: [VRFC 10-3107] analyzing entity 'setMem_gmem3_m_axi_srl'
INFO: [VRFC 10-3107] analyzing entity 'setMem_gmem3_m_axi_mem'
INFO: [VRFC 10-163] Analyzing VHDL file "C:/Users/marco/Desktop/NECST/NL2/AXI_M/AXI_M/solution1/sim/vhdl/setMem_mul_32s_32s_32_2_1.vhd" into library xil_defaultlib
INFO: [VRFC 10-3107] analyzing entity 'setMem_mul_32s_32s_32_2_1'
INFO: [VRFC 10-163] Analyzing VHDL file "C:/Users/marco/Desktop/NECST/NL2/AXI_M/AXI_M/solution1/sim/vhdl/setMem_sdiv_32ns_32ns_32_36_1.vhd" into library xil_defaultlib
INFO: [VRFC 10-3107] analyzing entity 'setMem_sdiv_32ns_32ns_32_36_1_divider'
INFO: [VRFC 10-3107] analyzing entity 'setMem_sdiv_32ns_32ns_32_36_1'
INFO: [VRFC 10-163] Analyzing VHDL file "C:/Users/marco/Desktop/NECST/NL2/AXI_M/AXI_M/solution1/sim/vhdl/setMem_setMem_Pipeline_VITIS_LOOP_34_1.vhd" into library xil_defaultlib
INFO: [VRFC 10-3107] analyzing entity 'setMem_setMem_Pipeline_VITIS_LOOP_34_1'
INFO: [VRFC 10-163] Analyzing VHDL file "C:/Users/marco/Desktop/NECST/NL2/AXI_M/AXI_M/solution1/sim/vhdl/setMem_setMem_Pipeline_VITIS_LOOP_42_2.vhd" into library xil_defaultlib
INFO: [VRFC 10-3107] analyzing entity 'setMem_setMem_Pipeline_VITIS_LOOP_42_2'
INFO: [VRFC 10-163] Analyzing VHDL file "C:/Users/marco/Desktop/NECST/NL2/AXI_M/AXI_M/solution1/sim/vhdl/setMem_setMem_Pipeline_VITIS_LOOP_97_3.vhd" into library xil_defaultlib
INFO: [VRFC 10-3107] analyzing entity 'setMem_setMem_Pipeline_VITIS_LOOP_97_3'
Starting static elaboration
Pass Through NonSizing Optimizer
Completed static elaboration
Starting simulation data flow analysis
Completed simulation data flow analysis
Time Resolution for simulation is 1ps
Compiling package std.standard
Compiling package std.textio
Compiling package ieee.std_logic_1164
Compiling package ieee.std_logic_arith
Compiling package ieee.std_logic_unsigned
Compiling package ieee.numeric_std
Compiling package ieee.std_logic_textio
Compiling module work.glbl
Compiling architecture rtl of entity xil_defaultlib.setMem_data_a_RAM_AUTO_1R1W [\setMem_data_a_RAM_AUTO_1R1W(1,4...]
Compiling architecture behav of entity xil_defaultlib.setMem_flow_control_loop_pipe_sequential_init [setmem_flow_control_loop_pipe_se...]
Compiling architecture behav of entity xil_defaultlib.setMem_setMem_Pipeline_VITIS_LOOP_34_1 [setmem_setmem_pipeline_vitis_loo...]
Compiling architecture behav of entity xil_defaultlib.setMem_mul_32s_32s_32_2_1 [\setMem_mul_32s_32s_32_2_1(num_s...]
Compiling architecture rtl of entity xil_defaultlib.setMem_sdiv_32ns_32ns_32_36_1_divider [setmem_sdiv_32ns_32ns_32_36_1_di...]
Compiling architecture rtl of entity xil_defaultlib.setMem_sdiv_32ns_32ns_32_36_1 [\setMem_sdiv_32ns_32ns_32_36_1(n...]
Compiling architecture behav of entity xil_defaultlib.setMem_setMem_Pipeline_VITIS_LOOP_42_2 [setmem_setmem_pipeline_vitis_loo...]
Compiling architecture behav of entity xil_defaultlib.setMem_setMem_Pipeline_VITIS_LOOP_97_3 [setmem_setmem_pipeline_vitis_loo...]
Compiling architecture behave of entity xil_defaultlib.setMem_control_s_axi [setmem_control_s_axi_default]
Compiling architecture behav of entity xil_defaultlib.setMem_gmem0_m_axi_srl [\setMem_gmem0_m_axi_srl(data_wid...]
Compiling architecture behave of entity xil_defaultlib.setMem_gmem0_m_axi_fifo [\setMem_gmem0_m_axi_fifo(data_wi...]
Compiling architecture behav of entity xil_defaultlib.setMem_gmem0_m_axi_mem [\setMem_gmem0_m_axi_mem(mem_styl...]
Compiling architecture behave of entity xil_defaultlib.setMem_gmem0_m_axi_fifo [\setMem_gmem0_m_axi_fifo(mem_sty...]
Compiling architecture behave of entity xil_defaultlib.setMem_gmem0_m_axi_load [\setMem_gmem0_m_axi_load(num_rea...]
Compiling architecture behav of entity xil_defaultlib.setMem_gmem0_m_axi_mem [\setMem_gmem0_m_axi_mem(mem_styl...]
Compiling architecture behave of entity xil_defaultlib.setMem_gmem0_m_axi_fifo [\setMem_gmem0_m_axi_fifo(mem_sty...]
Compiling architecture behav of entity xil_defaultlib.setMem_gmem0_m_axi_srl [\setMem_gmem0_m_axi_srl(data_wid...]
Compiling architecture behave of entity xil_defaultlib.setMem_gmem0_m_axi_fifo [\setMem_gmem0_m_axi_fifo(data_wi...]
Compiling architecture behav of entity xil_defaultlib.setMem_gmem0_m_axi_srl [\setMem_gmem0_m_axi_srl(data_wid...]
Compiling architecture behave of entity xil_defaultlib.setMem_gmem0_m_axi_fifo [\setMem_gmem0_m_axi_fifo(data_wi...]
Compiling architecture behave of entity xil_defaultlib.setMem_gmem0_m_axi_store [\setMem_gmem0_m_axi_store(num_wr...]
Compiling architecture behave of entity xil_defaultlib.setMem_gmem0_m_axi_reg_slice [\setMem_gmem0_m_axi_reg_slice(da...]
Compiling architecture behave of entity xil_defaultlib.setMem_gmem0_m_axi_burst_converter [\setMem_gmem0_m_axi_burst_conver...]
Compiling architecture behave of entity xil_defaultlib.setMem_gmem0_m_axi_reg_slice [\setMem_gmem0_m_axi_reg_slice(da...]
Compiling architecture behave of entity xil_defaultlib.setMem_gmem0_m_axi_read [\setMem_gmem0_m_axi_read(bus_add...]
Compiling architecture behav of entity xil_defaultlib.setMem_gmem0_m_axi_srl [\setMem_gmem0_m_axi_srl(data_wid...]
Compiling architecture behave of entity xil_defaultlib.setMem_gmem0_m_axi_fifo [\setMem_gmem0_m_axi_fifo(1,8)\]
Compiling architecture behav of entity xil_defaultlib.setMem_gmem0_m_axi_srl [\setMem_gmem0_m_axi_srl(data_wid...]
Compiling architecture behave of entity xil_defaultlib.setMem_gmem0_m_axi_fifo [\setMem_gmem0_m_axi_fifo(data_wi...]
Compiling architecture behave of entity xil_defaultlib.setMem_gmem0_m_axi_reg_slice [\setMem_gmem0_m_axi_reg_slice(da...]
Compiling architecture behav of entity xil_defaultlib.setMem_gmem0_m_axi_srl [\setMem_gmem0_m_axi_srl(data_wid...]
Compiling architecture behave of entity xil_defaultlib.setMem_gmem0_m_axi_fifo [\setMem_gmem0_m_axi_fifo(data_wi...]
Compiling architecture behav of entity xil_defaultlib.setMem_gmem0_m_axi_throttle [\setMem_gmem0_m_axi_throttle(con...]
Compiling architecture behave of entity xil_defaultlib.setMem_gmem0_m_axi_reg_slice [\setMem_gmem0_m_axi_reg_slice(da...]
Compiling architecture behave of entity xil_defaultlib.setMem_gmem0_m_axi_write [\setMem_gmem0_m_axi_write(conser...]
Compiling architecture behave of entity xil_defaultlib.setMem_gmem0_m_axi [\setMem_gmem0_m_axi(conservative...]
Compiling architecture behav of entity xil_defaultlib.setMem_gmem1_m_axi_srl [\setMem_gmem1_m_axi_srl(data_wid...]
Compiling architecture behave of entity xil_defaultlib.setMem_gmem1_m_axi_fifo [\setMem_gmem1_m_axi_fifo(data_wi...]
Compiling architecture behav of entity xil_defaultlib.setMem_gmem1_m_axi_mem [\setMem_gmem1_m_axi_mem(mem_styl...]
Compiling architecture behave of entity xil_defaultlib.setMem_gmem1_m_axi_fifo [\setMem_gmem1_m_axi_fifo(mem_sty...]
Compiling architecture behave of entity xil_defaultlib.setMem_gmem1_m_axi_load [\setMem_gmem1_m_axi_load(num_rea...]
Compiling architecture behav of entity xil_defaultlib.setMem_gmem1_m_axi_mem [\setMem_gmem1_m_axi_mem(mem_styl...]
Compiling architecture behave of entity xil_defaultlib.setMem_gmem1_m_axi_fifo [\setMem_gmem1_m_axi_fifo(mem_sty...]
Compiling architecture behav of entity xil_defaultlib.setMem_gmem1_m_axi_srl [\setMem_gmem1_m_axi_srl(data_wid...]
Compiling architecture behave of entity xil_defaultlib.setMem_gmem1_m_axi_fifo [\setMem_gmem1_m_axi_fifo(data_wi...]
Compiling architecture behav of entity xil_defaultlib.setMem_gmem1_m_axi_srl [\setMem_gmem1_m_axi_srl(data_wid...]
Compiling architecture behave of entity xil_defaultlib.setMem_gmem1_m_axi_fifo [\setMem_gmem1_m_axi_fifo(data_wi...]
Compiling architecture behave of entity xil_defaultlib.setMem_gmem1_m_axi_store [\setMem_gmem1_m_axi_store(num_wr...]
Compiling architecture behave of entity xil_defaultlib.setMem_gmem1_m_axi_reg_slice [\setMem_gmem1_m_axi_reg_slice(da...]
Compiling architecture behave of entity xil_defaultlib.setMem_gmem1_m_axi_burst_converter [\setMem_gmem1_m_axi_burst_conver...]
Compiling architecture behave of entity xil_defaultlib.setMem_gmem1_m_axi_reg_slice [\setMem_gmem1_m_axi_reg_slice(da...]
Compiling architecture behave of entity xil_defaultlib.setMem_gmem1_m_axi_read [\setMem_gmem1_m_axi_read(bus_add...]
Compiling architecture behav of entity xil_defaultlib.setMem_gmem1_m_axi_srl [\setMem_gmem1_m_axi_srl(data_wid...]
Compiling architecture behave of entity xil_defaultlib.setMem_gmem1_m_axi_fifo [\setMem_gmem1_m_axi_fifo(1,8)\]
Compiling architecture behav of entity xil_defaultlib.setMem_gmem1_m_axi_srl [\setMem_gmem1_m_axi_srl(data_wid...]
Compiling architecture behave of entity xil_defaultlib.setMem_gmem1_m_axi_fifo [\setMem_gmem1_m_axi_fifo(data_wi...]
Compiling architecture behave of entity xil_defaultlib.setMem_gmem1_m_axi_reg_slice [\setMem_gmem1_m_axi_reg_slice(da...]
Compiling architecture behav of entity xil_defaultlib.setMem_gmem1_m_axi_srl [\setMem_gmem1_m_axi_srl(data_wid...]
Compiling architecture behave of entity xil_defaultlib.setMem_gmem1_m_axi_fifo [\setMem_gmem1_m_axi_fifo(data_wi...]
Compiling architecture behav of entity xil_defaultlib.setMem_gmem1_m_axi_throttle [\setMem_gmem1_m_axi_throttle(con...]
Compiling architecture behave of entity xil_defaultlib.setMem_gmem1_m_axi_reg_slice [\setMem_gmem1_m_axi_reg_slice(da...]
Compiling architecture behave of entity xil_defaultlib.setMem_gmem1_m_axi_write [\setMem_gmem1_m_axi_write(conser...]
Compiling architecture behave of entity xil_defaultlib.setMem_gmem1_m_axi [\setMem_gmem1_m_axi(conservative...]
Compiling architecture behav of entity xil_defaultlib.setMem_gmem2_m_axi_srl [\setMem_gmem2_m_axi_srl(data_wid...]
Compiling architecture behave of entity xil_defaultlib.setMem_gmem2_m_axi_fifo [\setMem_gmem2_m_axi_fifo(data_wi...]
Compiling architecture behav of entity xil_defaultlib.setMem_gmem2_m_axi_mem [\setMem_gmem2_m_axi_mem(mem_styl...]
Compiling architecture behave of entity xil_defaultlib.setMem_gmem2_m_axi_fifo [\setMem_gmem2_m_axi_fifo(mem_sty...]
Compiling architecture behave of entity xil_defaultlib.setMem_gmem2_m_axi_load [\setMem_gmem2_m_axi_load(num_rea...]
Compiling architecture behav of entity xil_defaultlib.setMem_gmem2_m_axi_mem [\setMem_gmem2_m_axi_mem(mem_styl...]
Compiling architecture behave of entity xil_defaultlib.setMem_gmem2_m_axi_fifo [\setMem_gmem2_m_axi_fifo(mem_sty...]
Compiling architecture behav of entity xil_defaultlib.setMem_gmem2_m_axi_srl [\setMem_gmem2_m_axi_srl(data_wid...]
Compiling architecture behave of entity xil_defaultlib.setMem_gmem2_m_axi_fifo [\setMem_gmem2_m_axi_fifo(data_wi...]
Compiling architecture behav of entity xil_defaultlib.setMem_gmem2_m_axi_srl [\setMem_gmem2_m_axi_srl(data_wid...]
Compiling architecture behave of entity xil_defaultlib.setMem_gmem2_m_axi_fifo [\setMem_gmem2_m_axi_fifo(data_wi...]
Compiling architecture behave of entity xil_defaultlib.setMem_gmem2_m_axi_store [\setMem_gmem2_m_axi_store(num_wr...]
Compiling architecture behave of entity xil_defaultlib.setMem_gmem2_m_axi_reg_slice [\setMem_gmem2_m_axi_reg_slice(da...]
Compiling architecture behave of entity xil_defaultlib.setMem_gmem2_m_axi_burst_converter [\setMem_gmem2_m_axi_burst_conver...]
Compiling architecture behave of entity xil_defaultlib.setMem_gmem2_m_axi_reg_slice [\setMem_gmem2_m_axi_reg_slice(da...]
Compiling architecture behave of entity xil_defaultlib.setMem_gmem2_m_axi_read [\setMem_gmem2_m_axi_read(bus_add...]
Compiling architecture behav of entity xil_defaultlib.setMem_gmem2_m_axi_srl [\setMem_gmem2_m_axi_srl(data_wid...]
Compiling architecture behave of entity xil_defaultlib.setMem_gmem2_m_axi_fifo [\setMem_gmem2_m_axi_fifo(1,8)\]
Compiling architecture behav of entity xil_defaultlib.setMem_gmem2_m_axi_srl [\setMem_gmem2_m_axi_srl(data_wid...]
Compiling architecture behave of entity xil_defaultlib.setMem_gmem2_m_axi_fifo [\setMem_gmem2_m_axi_fifo(data_wi...]
Compiling architecture behave of entity xil_defaultlib.setMem_gmem2_m_axi_reg_slice [\setMem_gmem2_m_axi_reg_slice(da...]
Compiling architecture behav of entity xil_defaultlib.setMem_gmem2_m_axi_srl [\setMem_gmem2_m_axi_srl(data_wid...]
Compiling architecture behave of entity xil_defaultlib.setMem_gmem2_m_axi_fifo [\setMem_gmem2_m_axi_fifo(data_wi...]
Compiling architecture behav of entity xil_defaultlib.setMem_gmem2_m_axi_throttle [\setMem_gmem2_m_axi_throttle(con...]
Compiling architecture behave of entity xil_defaultlib.setMem_gmem2_m_axi_reg_slice [\setMem_gmem2_m_axi_reg_slice(da...]
Compiling architecture behave of entity xil_defaultlib.setMem_gmem2_m_axi_write [\setMem_gmem2_m_axi_write(conser...]
Compiling architecture behave of entity xil_defaultlib.setMem_gmem2_m_axi [\setMem_gmem2_m_axi(conservative...]
Compiling architecture behav of entity xil_defaultlib.setMem_gmem3_m_axi_srl [\setMem_gmem3_m_axi_srl(data_wid...]
Compiling architecture behave of entity xil_defaultlib.setMem_gmem3_m_axi_fifo [\setMem_gmem3_m_axi_fifo(data_wi...]
Compiling architecture behav of entity xil_defaultlib.setMem_gmem3_m_axi_mem [\setMem_gmem3_m_axi_mem(mem_styl...]
Compiling architecture behave of entity xil_defaultlib.setMem_gmem3_m_axi_fifo [\setMem_gmem3_m_axi_fifo(mem_sty...]
Compiling architecture behave of entity xil_defaultlib.setMem_gmem3_m_axi_load [\setMem_gmem3_m_axi_load(num_rea...]
Compiling architecture behav of entity xil_defaultlib.setMem_gmem3_m_axi_mem [\setMem_gmem3_m_axi_mem(mem_styl...]
Compiling architecture behave of entity xil_defaultlib.setMem_gmem3_m_axi_fifo [\setMem_gmem3_m_axi_fifo(mem_sty...]
Compiling architecture behav of entity xil_defaultlib.setMem_gmem3_m_axi_srl [\setMem_gmem3_m_axi_srl(data_wid...]
Compiling architecture behave of entity xil_defaultlib.setMem_gmem3_m_axi_fifo [\setMem_gmem3_m_axi_fifo(data_wi...]
Compiling architecture behav of entity xil_defaultlib.setMem_gmem3_m_axi_srl [\setMem_gmem3_m_axi_srl(data_wid...]
Compiling architecture behave of entity xil_defaultlib.setMem_gmem3_m_axi_fifo [\setMem_gmem3_m_axi_fifo(data_wi...]
Compiling architecture behave of entity xil_defaultlib.setMem_gmem3_m_axi_store [\setMem_gmem3_m_axi_store(num_wr...]
Compiling architecture behave of entity xil_defaultlib.setMem_gmem3_m_axi_reg_slice [\setMem_gmem3_m_axi_reg_slice(da...]
Compiling architecture behave of entity xil_defaultlib.setMem_gmem3_m_axi_burst_converter [\setMem_gmem3_m_axi_burst_conver...]
Compiling architecture behave of entity xil_defaultlib.setMem_gmem3_m_axi_reg_slice [\setMem_gmem3_m_axi_reg_slice(da...]
Compiling architecture behave of entity xil_defaultlib.setMem_gmem3_m_axi_read [\setMem_gmem3_m_axi_read(bus_add...]
Compiling architecture behav of entity xil_defaultlib.setMem_gmem3_m_axi_srl [\setMem_gmem3_m_axi_srl(data_wid...]
Compiling architecture behave of entity xil_defaultlib.setMem_gmem3_m_axi_fifo [\setMem_gmem3_m_axi_fifo(1,8)\]
Compiling architecture behav of entity xil_defaultlib.setMem_gmem3_m_axi_srl [\setMem_gmem3_m_axi_srl(data_wid...]
Compiling architecture behave of entity xil_defaultlib.setMem_gmem3_m_axi_fifo [\setMem_gmem3_m_axi_fifo(data_wi...]
Compiling architecture behave of entity xil_defaultlib.setMem_gmem3_m_axi_reg_slice [\setMem_gmem3_m_axi_reg_slice(da...]
Compiling architecture behav of entity xil_defaultlib.setMem_gmem3_m_axi_srl [\setMem_gmem3_m_axi_srl(data_wid...]
Compiling architecture behave of entity xil_defaultlib.setMem_gmem3_m_axi_fifo [\setMem_gmem3_m_axi_fifo(data_wi...]
Compiling architecture behav of entity xil_defaultlib.setMem_gmem3_m_axi_throttle [\setMem_gmem3_m_axi_throttle(con...]
Compiling architecture behave of entity xil_defaultlib.setMem_gmem3_m_axi_reg_slice [\setMem_gmem3_m_axi_reg_slice(da...]
Compiling architecture behave of entity xil_defaultlib.setMem_gmem3_m_axi_write [\setMem_gmem3_m_axi_write(conser...]
Compiling architecture behave of entity xil_defaultlib.setMem_gmem3_m_axi [\setMem_gmem3_m_axi(conservative...]
Compiling architecture behav of entity xil_defaultlib.setMem [setmem_default]
Compiling architecture behav of entity xil_defaultlib.AESL_axi_master_gmem0 [aesl_axi_master_gmem0_default]
Compiling architecture behav of entity xil_defaultlib.AESL_axi_master_gmem1 [aesl_axi_master_gmem1_default]
Compiling architecture behav of entity xil_defaultlib.AESL_axi_master_gmem2 [aesl_axi_master_gmem2_default]
Compiling architecture behav of entity xil_defaultlib.AESL_axi_master_gmem3 [aesl_axi_master_gmem3_default]
Compiling architecture behav of entity xil_defaultlib.AESL_axi_slave_control [aesl_axi_slave_control_default]
Compiling architecture behav of entity xil_defaultlib.apatb_setmem_top
Built simulation snapshot setMem
ECHO is off.
ECHO is off.

****** xsim v2023.2 (64-bit)
  **** SW Build 4029153 on Fri Oct 13 20:14:34 MDT 2023
  **** IP Build 4028589 on Sat Oct 14 00:45:43 MDT 2023
  **** SharedData Build 4025554 on Tue Oct 10 17:18:54 MDT 2023
    ** Copyright 1986-2022 Xilinx, Inc. All Rights Reserved.
    ** Copyright 2022-2023 Advanced Micro Devices, Inc. All Rights Reserved.

source xsim.dir/setMem/xsim_script.tcl
# xsim {setMem} -autoloadwcfg -tclbatch {setMem.tcl}
Time resolution is 1 ps
source setMem.tcl
## log_wave -r /
WARNING: [Simtcl 6-197] One or more HDL objects could not be logged because of object type or size limitations.  To see details please rerun the command with -verbose (-v).
## set designtopgroup [add_wave_group "Design Top Signals"]
## set cinoutgroup [add_wave_group "C InOuts" -into $designtopgroup]
## set a__b__c__op__return_group [add_wave_group a__b__c__op__return(axi_slave) -into $cinoutgroup]
## add_wave /apatb_setMem_top/AESL_inst_setMem/interrupt -into $a__b__c__op__return_group -color #ffff00 -radix hex
## add_wave /apatb_setMem_top/AESL_inst_setMem/s_axi_control_BRESP -into $a__b__c__op__return_group -radix hex
## add_wave /apatb_setMem_top/AESL_inst_setMem/s_axi_control_BREADY -into $a__b__c__op__return_group -color #ffff00 -radix hex
## add_wave /apatb_setMem_top/AESL_inst_setMem/s_axi_control_BVALID -into $a__b__c__op__return_group -color #ffff00 -radix hex
## add_wave /apatb_setMem_top/AESL_inst_setMem/s_axi_control_RRESP -into $a__b__c__op__return_group -radix hex
## add_wave /apatb_setMem_top/AESL_inst_setMem/s_axi_control_RDATA -into $a__b__c__op__return_group -radix hex
## add_wave /apatb_setMem_top/AESL_inst_setMem/s_axi_control_RREADY -into $a__b__c__op__return_group -color #ffff00 -radix hex
## add_wave /apatb_setMem_top/AESL_inst_setMem/s_axi_control_RVALID -into $a__b__c__op__return_group -color #ffff00 -radix hex
## add_wave /apatb_setMem_top/AESL_inst_setMem/s_axi_control_ARREADY -into $a__b__c__op__return_group -color #ffff00 -radix hex
## add_wave /apatb_setMem_top/AESL_inst_setMem/s_axi_control_ARVALID -into $a__b__c__op__return_group -color #ffff00 -radix hex
## add_wave /apatb_setMem_top/AESL_inst_setMem/s_axi_control_ARADDR -into $a__b__c__op__return_group -radix hex
## add_wave /apatb_setMem_top/AESL_inst_setMem/s_axi_control_WSTRB -into $a__b__c__op__return_group -radix hex
## add_wave /apatb_setMem_top/AESL_inst_setMem/s_axi_control_WDATA -into $a__b__c__op__return_group -radix hex
## add_wave /apatb_setMem_top/AESL_inst_setMem/s_axi_control_WREADY -into $a__b__c__op__return_group -color #ffff00 -radix hex
## add_wave /apatb_setMem_top/AESL_inst_setMem/s_axi_control_WVALID -into $a__b__c__op__return_group -color #ffff00 -radix hex
## add_wave /apatb_setMem_top/AESL_inst_setMem/s_axi_control_AWREADY -into $a__b__c__op__return_group -color #ffff00 -radix hex
## add_wave /apatb_setMem_top/AESL_inst_setMem/s_axi_control_AWVALID -into $a__b__c__op__return_group -color #ffff00 -radix hex
## add_wave /apatb_setMem_top/AESL_inst_setMem/s_axi_control_AWADDR -into $a__b__c__op__return_group -radix hex
## set coutputgroup [add_wave_group "C Outputs" -into $designtopgroup]
## set c_group [add_wave_group c(axi_master) -into $coutputgroup]
## set rdata_group [add_wave_group "Read Channel" -into $c_group]
## set wdata_group [add_wave_group "Write Channel" -into $c_group]
## set ctrl_group [add_wave_group "Handshakes" -into $c_group]
## add_wave /apatb_setMem_top/AESL_inst_setMem/m_axi_gmem2_BUSER -into $wdata_group -radix hex
## add_wave /apatb_setMem_top/AESL_inst_setMem/m_axi_gmem2_BID -into $wdata_group -radix hex
## add_wave /apatb_setMem_top/AESL_inst_setMem/m_axi_gmem2_BRESP -into $wdata_group -radix hex
## add_wave /apatb_setMem_top/AESL_inst_setMem/m_axi_gmem2_BREADY -into $ctrl_group -color #ffff00 -radix hex
## add_wave /apatb_setMem_top/AESL_inst_setMem/m_axi_gmem2_BVALID -into $ctrl_group -color #ffff00 -radix hex
## add_wave /apatb_setMem_top/AESL_inst_setMem/m_axi_gmem2_RRESP -into $rdata_group -radix hex
## add_wave /apatb_setMem_top/AESL_inst_setMem/m_axi_gmem2_RUSER -into $rdata_group -radix hex
## add_wave /apatb_setMem_top/AESL_inst_setMem/m_axi_gmem2_RID -into $rdata_group -radix hex
## add_wave /apatb_setMem_top/AESL_inst_setMem/m_axi_gmem2_RLAST -into $ctrl_group -color #ffff00 -radix hex
## add_wave /apatb_setMem_top/AESL_inst_setMem/m_axi_gmem2_RDATA -into $rdata_group -radix hex
## add_wave /apatb_setMem_top/AESL_inst_setMem/m_axi_gmem2_RREADY -into $ctrl_group -color #ffff00 -radix hex
## add_wave /apatb_setMem_top/AESL_inst_setMem/m_axi_gmem2_RVALID -into $ctrl_group -color #ffff00 -radix hex
## add_wave /apatb_setMem_top/AESL_inst_setMem/m_axi_gmem2_ARUSER -into $rdata_group -radix hex
## add_wave /apatb_setMem_top/AESL_inst_setMem/m_axi_gmem2_ARREGION -into $rdata_group -radix hex
## add_wave /apatb_setMem_top/AESL_inst_setMem/m_axi_gmem2_ARQOS -into $rdata_group -radix hex
## add_wave /apatb_setMem_top/AESL_inst_setMem/m_axi_gmem2_ARPROT -into $rdata_group -radix hex
## add_wave /apatb_setMem_top/AESL_inst_setMem/m_axi_gmem2_ARCACHE -into $rdata_group -radix hex
## add_wave /apatb_setMem_top/AESL_inst_setMem/m_axi_gmem2_ARLOCK -into $rdata_group -radix hex
## add_wave /apatb_setMem_top/AESL_inst_setMem/m_axi_gmem2_ARBURST -into $rdata_group -radix hex
## add_wave /apatb_setMem_top/AESL_inst_setMem/m_axi_gmem2_ARSIZE -into $rdata_group -radix hex
## add_wave /apatb_setMem_top/AESL_inst_setMem/m_axi_gmem2_ARLEN -into $rdata_group -radix hex
## add_wave /apatb_setMem_top/AESL_inst_setMem/m_axi_gmem2_ARID -into $rdata_group -radix hex
## add_wave /apatb_setMem_top/AESL_inst_setMem/m_axi_gmem2_ARADDR -into $rdata_group -radix hex
## add_wave /apatb_setMem_top/AESL_inst_setMem/m_axi_gmem2_ARREADY -into $ctrl_group -color #ffff00 -radix hex
## add_wave /apatb_setMem_top/AESL_inst_setMem/m_axi_gmem2_ARVALID -into $ctrl_group -color #ffff00 -radix hex
## add_wave /apatb_setMem_top/AESL_inst_setMem/m_axi_gmem2_WUSER -into $wdata_group -radix hex
## add_wave /apatb_setMem_top/AESL_inst_setMem/m_axi_gmem2_WID -into $wdata_group -radix hex
## add_wave /apatb_setMem_top/AESL_inst_setMem/m_axi_gmem2_WLAST -into $ctrl_group -color #ffff00 -radix hex
## add_wave /apatb_setMem_top/AESL_inst_setMem/m_axi_gmem2_WSTRB -into $wdata_group -radix hex
## add_wave /apatb_setMem_top/AESL_inst_setMem/m_axi_gmem2_WDATA -into $wdata_group -radix hex
## add_wave /apatb_setMem_top/AESL_inst_setMem/m_axi_gmem2_WREADY -into $ctrl_group -color #ffff00 -radix hex
## add_wave /apatb_setMem_top/AESL_inst_setMem/m_axi_gmem2_WVALID -into $ctrl_group -color #ffff00 -radix hex
## add_wave /apatb_setMem_top/AESL_inst_setMem/m_axi_gmem2_AWUSER -into $wdata_group -radix hex
## add_wave /apatb_setMem_top/AESL_inst_setMem/m_axi_gmem2_AWREGION -into $wdata_group -radix hex
## add_wave /apatb_setMem_top/AESL_inst_setMem/m_axi_gmem2_AWQOS -into $wdata_group -radix hex
## add_wave /apatb_setMem_top/AESL_inst_setMem/m_axi_gmem2_AWPROT -into $wdata_group -radix hex
## add_wave /apatb_setMem_top/AESL_inst_setMem/m_axi_gmem2_AWCACHE -into $wdata_group -radix hex
## add_wave /apatb_setMem_top/AESL_inst_setMem/m_axi_gmem2_AWLOCK -into $wdata_group -radix hex
## add_wave /apatb_setMem_top/AESL_inst_setMem/m_axi_gmem2_AWBURST -into $wdata_group -radix hex
## add_wave /apatb_setMem_top/AESL_inst_setMem/m_axi_gmem2_AWSIZE -into $wdata_group -radix hex
## add_wave /apatb_setMem_top/AESL_inst_setMem/m_axi_gmem2_AWLEN -into $wdata_group -radix hex
## add_wave /apatb_setMem_top/AESL_inst_setMem/m_axi_gmem2_AWID -into $wdata_group -radix hex
## add_wave /apatb_setMem_top/AESL_inst_setMem/m_axi_gmem2_AWADDR -into $wdata_group -radix hex
## add_wave /apatb_setMem_top/AESL_inst_setMem/m_axi_gmem2_AWREADY -into $ctrl_group -color #ffff00 -radix hex
## add_wave /apatb_setMem_top/AESL_inst_setMem/m_axi_gmem2_AWVALID -into $ctrl_group -color #ffff00 -radix hex
## set cinputgroup [add_wave_group "C Inputs" -into $designtopgroup]
## set op_group [add_wave_group op(axi_master) -into $cinputgroup]
## set rdata_group [add_wave_group "Read Channel" -into $op_group]
## set wdata_group [add_wave_group "Write Channel" -into $op_group]
## set ctrl_group [add_wave_group "Handshakes" -into $op_group]
## add_wave /apatb_setMem_top/AESL_inst_setMem/m_axi_gmem3_BUSER -into $wdata_group -radix hex
## add_wave /apatb_setMem_top/AESL_inst_setMem/m_axi_gmem3_BID -into $wdata_group -radix hex
## add_wave /apatb_setMem_top/AESL_inst_setMem/m_axi_gmem3_BRESP -into $wdata_group -radix hex
## add_wave /apatb_setMem_top/AESL_inst_setMem/m_axi_gmem3_BREADY -into $ctrl_group -color #ffff00 -radix hex
## add_wave /apatb_setMem_top/AESL_inst_setMem/m_axi_gmem3_BVALID -into $ctrl_group -color #ffff00 -radix hex
## add_wave /apatb_setMem_top/AESL_inst_setMem/m_axi_gmem3_RRESP -into $rdata_group -radix hex
## add_wave /apatb_setMem_top/AESL_inst_setMem/m_axi_gmem3_RUSER -into $rdata_group -radix hex
## add_wave /apatb_setMem_top/AESL_inst_setMem/m_axi_gmem3_RID -into $rdata_group -radix hex
## add_wave /apatb_setMem_top/AESL_inst_setMem/m_axi_gmem3_RLAST -into $ctrl_group -color #ffff00 -radix hex
## add_wave /apatb_setMem_top/AESL_inst_setMem/m_axi_gmem3_RDATA -into $rdata_group -radix hex
## add_wave /apatb_setMem_top/AESL_inst_setMem/m_axi_gmem3_RREADY -into $ctrl_group -color #ffff00 -radix hex
## add_wave /apatb_setMem_top/AESL_inst_setMem/m_axi_gmem3_RVALID -into $ctrl_group -color #ffff00 -radix hex
## add_wave /apatb_setMem_top/AESL_inst_setMem/m_axi_gmem3_ARUSER -into $rdata_group -radix hex
## add_wave /apatb_setMem_top/AESL_inst_setMem/m_axi_gmem3_ARREGION -into $rdata_group -radix hex
## add_wave /apatb_setMem_top/AESL_inst_setMem/m_axi_gmem3_ARQOS -into $rdata_group -radix hex
## add_wave /apatb_setMem_top/AESL_inst_setMem/m_axi_gmem3_ARPROT -into $rdata_group -radix hex
## add_wave /apatb_setMem_top/AESL_inst_setMem/m_axi_gmem3_ARCACHE -into $rdata_group -radix hex
## add_wave /apatb_setMem_top/AESL_inst_setMem/m_axi_gmem3_ARLOCK -into $rdata_group -radix hex
## add_wave /apatb_setMem_top/AESL_inst_setMem/m_axi_gmem3_ARBURST -into $rdata_group -radix hex
## add_wave /apatb_setMem_top/AESL_inst_setMem/m_axi_gmem3_ARSIZE -into $rdata_group -radix hex
## add_wave /apatb_setMem_top/AESL_inst_setMem/m_axi_gmem3_ARLEN -into $rdata_group -radix hex
## add_wave /apatb_setMem_top/AESL_inst_setMem/m_axi_gmem3_ARID -into $rdata_group -radix hex
## add_wave /apatb_setMem_top/AESL_inst_setMem/m_axi_gmem3_ARADDR -into $rdata_group -radix hex
## add_wave /apatb_setMem_top/AESL_inst_setMem/m_axi_gmem3_ARREADY -into $ctrl_group -color #ffff00 -radix hex
## add_wave /apatb_setMem_top/AESL_inst_setMem/m_axi_gmem3_ARVALID -into $ctrl_group -color #ffff00 -radix hex
## add_wave /apatb_setMem_top/AESL_inst_setMem/m_axi_gmem3_WUSER -into $wdata_group -radix hex
## add_wave /apatb_setMem_top/AESL_inst_setMem/m_axi_gmem3_WID -into $wdata_group -radix hex
## add_wave /apatb_setMem_top/AESL_inst_setMem/m_axi_gmem3_WLAST -into $ctrl_group -color #ffff00 -radix hex
## add_wave /apatb_setMem_top/AESL_inst_setMem/m_axi_gmem3_WSTRB -into $wdata_group -radix hex
## add_wave /apatb_setMem_top/AESL_inst_setMem/m_axi_gmem3_WDATA -into $wdata_group -radix hex
## add_wave /apatb_setMem_top/AESL_inst_setMem/m_axi_gmem3_WREADY -into $ctrl_group -color #ffff00 -radix hex
## add_wave /apatb_setMem_top/AESL_inst_setMem/m_axi_gmem3_WVALID -into $ctrl_group -color #ffff00 -radix hex
## add_wave /apatb_setMem_top/AESL_inst_setMem/m_axi_gmem3_AWUSER -into $wdata_group -radix hex
## add_wave /apatb_setMem_top/AESL_inst_setMem/m_axi_gmem3_AWREGION -into $wdata_group -radix hex
## add_wave /apatb_setMem_top/AESL_inst_setMem/m_axi_gmem3_AWQOS -into $wdata_group -radix hex
## add_wave /apatb_setMem_top/AESL_inst_setMem/m_axi_gmem3_AWPROT -into $wdata_group -radix hex
## add_wave /apatb_setMem_top/AESL_inst_setMem/m_axi_gmem3_AWCACHE -into $wdata_group -radix hex
## add_wave /apatb_setMem_top/AESL_inst_setMem/m_axi_gmem3_AWLOCK -into $wdata_group -radix hex
## add_wave /apatb_setMem_top/AESL_inst_setMem/m_axi_gmem3_AWBURST -into $wdata_group -radix hex
## add_wave /apatb_setMem_top/AESL_inst_setMem/m_axi_gmem3_AWSIZE -into $wdata_group -radix hex
## add_wave /apatb_setMem_top/AESL_inst_setMem/m_axi_gmem3_AWLEN -into $wdata_group -radix hex
## add_wave /apatb_setMem_top/AESL_inst_setMem/m_axi_gmem3_AWID -into $wdata_group -radix hex
## add_wave /apatb_setMem_top/AESL_inst_setMem/m_axi_gmem3_AWADDR -into $wdata_group -radix hex
## add_wave /apatb_setMem_top/AESL_inst_setMem/m_axi_gmem3_AWREADY -into $ctrl_group -color #ffff00 -radix hex
## add_wave /apatb_setMem_top/AESL_inst_setMem/m_axi_gmem3_AWVALID -into $ctrl_group -color #ffff00 -radix hex
## set b_group [add_wave_group b(axi_master) -into $cinputgroup]
## set rdata_group [add_wave_group "Read Channel" -into $b_group]
## set wdata_group [add_wave_group "Write Channel" -into $b_group]
## set ctrl_group [add_wave_group "Handshakes" -into $b_group]
## add_wave /apatb_setMem_top/AESL_inst_setMem/m_axi_gmem1_BUSER -into $wdata_group -radix hex
## add_wave /apatb_setMem_top/AESL_inst_setMem/m_axi_gmem1_BID -into $wdata_group -radix hex
## add_wave /apatb_setMem_top/AESL_inst_setMem/m_axi_gmem1_BRESP -into $wdata_group -radix hex
## add_wave /apatb_setMem_top/AESL_inst_setMem/m_axi_gmem1_BREADY -into $ctrl_group -color #ffff00 -radix hex
## add_wave /apatb_setMem_top/AESL_inst_setMem/m_axi_gmem1_BVALID -into $ctrl_group -color #ffff00 -radix hex
## add_wave /apatb_setMem_top/AESL_inst_setMem/m_axi_gmem1_RRESP -into $rdata_group -radix hex
## add_wave /apatb_setMem_top/AESL_inst_setMem/m_axi_gmem1_RUSER -into $rdata_group -radix hex
## add_wave /apatb_setMem_top/AESL_inst_setMem/m_axi_gmem1_RID -into $rdata_group -radix hex
## add_wave /apatb_setMem_top/AESL_inst_setMem/m_axi_gmem1_RLAST -into $ctrl_group -color #ffff00 -radix hex
## add_wave /apatb_setMem_top/AESL_inst_setMem/m_axi_gmem1_RDATA -into $rdata_group -radix hex
## add_wave /apatb_setMem_top/AESL_inst_setMem/m_axi_gmem1_RREADY -into $ctrl_group -color #ffff00 -radix hex
## add_wave /apatb_setMem_top/AESL_inst_setMem/m_axi_gmem1_RVALID -into $ctrl_group -color #ffff00 -radix hex
## add_wave /apatb_setMem_top/AESL_inst_setMem/m_axi_gmem1_ARUSER -into $rdata_group -radix hex
## add_wave /apatb_setMem_top/AESL_inst_setMem/m_axi_gmem1_ARREGION -into $rdata_group -radix hex
## add_wave /apatb_setMem_top/AESL_inst_setMem/m_axi_gmem1_ARQOS -into $rdata_group -radix hex
## add_wave /apatb_setMem_top/AESL_inst_setMem/m_axi_gmem1_ARPROT -into $rdata_group -radix hex
## add_wave /apatb_setMem_top/AESL_inst_setMem/m_axi_gmem1_ARCACHE -into $rdata_group -radix hex
## add_wave /apatb_setMem_top/AESL_inst_setMem/m_axi_gmem1_ARLOCK -into $rdata_group -radix hex
## add_wave /apatb_setMem_top/AESL_inst_setMem/m_axi_gmem1_ARBURST -into $rdata_group -radix hex
## add_wave /apatb_setMem_top/AESL_inst_setMem/m_axi_gmem1_ARSIZE -into $rdata_group -radix hex
## add_wave /apatb_setMem_top/AESL_inst_setMem/m_axi_gmem1_ARLEN -into $rdata_group -radix hex
## add_wave /apatb_setMem_top/AESL_inst_setMem/m_axi_gmem1_ARID -into $rdata_group -radix hex
## add_wave /apatb_setMem_top/AESL_inst_setMem/m_axi_gmem1_ARADDR -into $rdata_group -radix hex
## add_wave /apatb_setMem_top/AESL_inst_setMem/m_axi_gmem1_ARREADY -into $ctrl_group -color #ffff00 -radix hex
## add_wave /apatb_setMem_top/AESL_inst_setMem/m_axi_gmem1_ARVALID -into $ctrl_group -color #ffff00 -radix hex
## add_wave /apatb_setMem_top/AESL_inst_setMem/m_axi_gmem1_WUSER -into $wdata_group -radix hex
## add_wave /apatb_setMem_top/AESL_inst_setMem/m_axi_gmem1_WID -into $wdata_group -radix hex
## add_wave /apatb_setMem_top/AESL_inst_setMem/m_axi_gmem1_WLAST -into $ctrl_group -color #ffff00 -radix hex
## add_wave /apatb_setMem_top/AESL_inst_setMem/m_axi_gmem1_WSTRB -into $wdata_group -radix hex
## add_wave /apatb_setMem_top/AESL_inst_setMem/m_axi_gmem1_WDATA -into $wdata_group -radix hex
## add_wave /apatb_setMem_top/AESL_inst_setMem/m_axi_gmem1_WREADY -into $ctrl_group -color #ffff00 -radix hex
## add_wave /apatb_setMem_top/AESL_inst_setMem/m_axi_gmem1_WVALID -into $ctrl_group -color #ffff00 -radix hex
## add_wave /apatb_setMem_top/AESL_inst_setMem/m_axi_gmem1_AWUSER -into $wdata_group -radix hex
## add_wave /apatb_setMem_top/AESL_inst_setMem/m_axi_gmem1_AWREGION -into $wdata_group -radix hex
## add_wave /apatb_setMem_top/AESL_inst_setMem/m_axi_gmem1_AWQOS -into $wdata_group -radix hex
## add_wave /apatb_setMem_top/AESL_inst_setMem/m_axi_gmem1_AWPROT -into $wdata_group -radix hex
## add_wave /apatb_setMem_top/AESL_inst_setMem/m_axi_gmem1_AWCACHE -into $wdata_group -radix hex
## add_wave /apatb_setMem_top/AESL_inst_setMem/m_axi_gmem1_AWLOCK -into $wdata_group -radix hex
## add_wave /apatb_setMem_top/AESL_inst_setMem/m_axi_gmem1_AWBURST -into $wdata_group -radix hex
## add_wave /apatb_setMem_top/AESL_inst_setMem/m_axi_gmem1_AWSIZE -into $wdata_group -radix hex
## add_wave /apatb_setMem_top/AESL_inst_setMem/m_axi_gmem1_AWLEN -into $wdata_group -radix hex
## add_wave /apatb_setMem_top/AESL_inst_setMem/m_axi_gmem1_AWID -into $wdata_group -radix hex
## add_wave /apatb_setMem_top/AESL_inst_setMem/m_axi_gmem1_AWADDR -into $wdata_group -radix hex
## add_wave /apatb_setMem_top/AESL_inst_setMem/m_axi_gmem1_AWREADY -into $ctrl_group -color #ffff00 -radix hex
## add_wave /apatb_setMem_top/AESL_inst_setMem/m_axi_gmem1_AWVALID -into $ctrl_group -color #ffff00 -radix hex
## set a_group [add_wave_group a(axi_master) -into $cinputgroup]
## set rdata_group [add_wave_group "Read Channel" -into $a_group]
## set wdata_group [add_wave_group "Write Channel" -into $a_group]
## set ctrl_group [add_wave_group "Handshakes" -into $a_group]
## add_wave /apatb_setMem_top/AESL_inst_setMem/m_axi_gmem0_BUSER -into $wdata_group -radix hex
## add_wave /apatb_setMem_top/AESL_inst_setMem/m_axi_gmem0_BID -into $wdata_group -radix hex
## add_wave /apatb_setMem_top/AESL_inst_setMem/m_axi_gmem0_BRESP -into $wdata_group -radix hex
## add_wave /apatb_setMem_top/AESL_inst_setMem/m_axi_gmem0_BREADY -into $ctrl_group -color #ffff00 -radix hex
## add_wave /apatb_setMem_top/AESL_inst_setMem/m_axi_gmem0_BVALID -into $ctrl_group -color #ffff00 -radix hex
## add_wave /apatb_setMem_top/AESL_inst_setMem/m_axi_gmem0_RRESP -into $rdata_group -radix hex
## add_wave /apatb_setMem_top/AESL_inst_setMem/m_axi_gmem0_RUSER -into $rdata_group -radix hex
## add_wave /apatb_setMem_top/AESL_inst_setMem/m_axi_gmem0_RID -into $rdata_group -radix hex
## add_wave /apatb_setMem_top/AESL_inst_setMem/m_axi_gmem0_RLAST -into $ctrl_group -color #ffff00 -radix hex
## add_wave /apatb_setMem_top/AESL_inst_setMem/m_axi_gmem0_RDATA -into $rdata_group -radix hex
## add_wave /apatb_setMem_top/AESL_inst_setMem/m_axi_gmem0_RREADY -into $ctrl_group -color #ffff00 -radix hex
## add_wave /apatb_setMem_top/AESL_inst_setMem/m_axi_gmem0_RVALID -into $ctrl_group -color #ffff00 -radix hex
## add_wave /apatb_setMem_top/AESL_inst_setMem/m_axi_gmem0_ARUSER -into $rdata_group -radix hex
## add_wave /apatb_setMem_top/AESL_inst_setMem/m_axi_gmem0_ARREGION -into $rdata_group -radix hex
## add_wave /apatb_setMem_top/AESL_inst_setMem/m_axi_gmem0_ARQOS -into $rdata_group -radix hex
## add_wave /apatb_setMem_top/AESL_inst_setMem/m_axi_gmem0_ARPROT -into $rdata_group -radix hex
## add_wave /apatb_setMem_top/AESL_inst_setMem/m_axi_gmem0_ARCACHE -into $rdata_group -radix hex
## add_wave /apatb_setMem_top/AESL_inst_setMem/m_axi_gmem0_ARLOCK -into $rdata_group -radix hex
## add_wave /apatb_setMem_top/AESL_inst_setMem/m_axi_gmem0_ARBURST -into $rdata_group -radix hex
## add_wave /apatb_setMem_top/AESL_inst_setMem/m_axi_gmem0_ARSIZE -into $rdata_group -radix hex
## add_wave /apatb_setMem_top/AESL_inst_setMem/m_axi_gmem0_ARLEN -into $rdata_group -radix hex
## add_wave /apatb_setMem_top/AESL_inst_setMem/m_axi_gmem0_ARID -into $rdata_group -radix hex
## add_wave /apatb_setMem_top/AESL_inst_setMem/m_axi_gmem0_ARADDR -into $rdata_group -radix hex
## add_wave /apatb_setMem_top/AESL_inst_setMem/m_axi_gmem0_ARREADY -into $ctrl_group -color #ffff00 -radix hex
## add_wave /apatb_setMem_top/AESL_inst_setMem/m_axi_gmem0_ARVALID -into $ctrl_group -color #ffff00 -radix hex
## add_wave /apatb_setMem_top/AESL_inst_setMem/m_axi_gmem0_WUSER -into $wdata_group -radix hex
## add_wave /apatb_setMem_top/AESL_inst_setMem/m_axi_gmem0_WID -into $wdata_group -radix hex
## add_wave /apatb_setMem_top/AESL_inst_setMem/m_axi_gmem0_WLAST -into $ctrl_group -color #ffff00 -radix hex
## add_wave /apatb_setMem_top/AESL_inst_setMem/m_axi_gmem0_WSTRB -into $wdata_group -radix hex
## add_wave /apatb_setMem_top/AESL_inst_setMem/m_axi_gmem0_WDATA -into $wdata_group -radix hex
## add_wave /apatb_setMem_top/AESL_inst_setMem/m_axi_gmem0_WREADY -into $ctrl_group -color #ffff00 -radix hex
## add_wave /apatb_setMem_top/AESL_inst_setMem/m_axi_gmem0_WVALID -into $ctrl_group -color #ffff00 -radix hex
## add_wave /apatb_setMem_top/AESL_inst_setMem/m_axi_gmem0_AWUSER -into $wdata_group -radix hex
## add_wave /apatb_setMem_top/AESL_inst_setMem/m_axi_gmem0_AWREGION -into $wdata_group -radix hex
## add_wave /apatb_setMem_top/AESL_inst_setMem/m_axi_gmem0_AWQOS -into $wdata_group -radix hex
## add_wave /apatb_setMem_top/AESL_inst_setMem/m_axi_gmem0_AWPROT -into $wdata_group -radix hex
## add_wave /apatb_setMem_top/AESL_inst_setMem/m_axi_gmem0_AWCACHE -into $wdata_group -radix hex
## add_wave /apatb_setMem_top/AESL_inst_setMem/m_axi_gmem0_AWLOCK -into $wdata_group -radix hex
## add_wave /apatb_setMem_top/AESL_inst_setMem/m_axi_gmem0_AWBURST -into $wdata_group -radix hex
## add_wave /apatb_setMem_top/AESL_inst_setMem/m_axi_gmem0_AWSIZE -into $wdata_group -radix hex
## add_wave /apatb_setMem_top/AESL_inst_setMem/m_axi_gmem0_AWLEN -into $wdata_group -radix hex
## add_wave /apatb_setMem_top/AESL_inst_setMem/m_axi_gmem0_AWID -into $wdata_group -radix hex
## add_wave /apatb_setMem_top/AESL_inst_setMem/m_axi_gmem0_AWADDR -into $wdata_group -radix hex
## add_wave /apatb_setMem_top/AESL_inst_setMem/m_axi_gmem0_AWREADY -into $ctrl_group -color #ffff00 -radix hex
## add_wave /apatb_setMem_top/AESL_inst_setMem/m_axi_gmem0_AWVALID -into $ctrl_group -color #ffff00 -radix hex
## set blocksiggroup [add_wave_group "Block-level IO Handshake(internal)" -into $designtopgroup]
## add_wave /apatb_setMem_top/AESL_inst_setMem/ap_done -into $blocksiggroup
## add_wave /apatb_setMem_top/AESL_inst_setMem/ap_idle -into $blocksiggroup
## add_wave /apatb_setMem_top/AESL_inst_setMem/ap_ready -into $blocksiggroup
## add_wave /apatb_setMem_top/AESL_inst_setMem/ap_start -into $blocksiggroup
## set resetgroup [add_wave_group "Reset" -into $designtopgroup]
## add_wave /apatb_setMem_top/AESL_inst_setMem/ap_rst_n -into $resetgroup
## set clockgroup [add_wave_group "Clock" -into $designtopgroup]
## add_wave /apatb_setMem_top/AESL_inst_setMem/ap_clk -into $clockgroup
## set testbenchgroup [add_wave_group "Test Bench Signals"]
## set tbinternalsiggroup [add_wave_group "Internal Signals" -into $testbenchgroup]
## set tb_simstatus_group [add_wave_group "Simulation Status" -into $tbinternalsiggroup]
## set tb_portdepth_group [add_wave_group "Port Depth" -into $tbinternalsiggroup]
## add_wave /apatb_setMem_top/AUTOTB_TRANSACTION_NUM -into $tb_simstatus_group -radix hex
## add_wave /apatb_setMem_top/ready_cnt -into $tb_simstatus_group -radix hex
## add_wave /apatb_setMem_top/done_cnt -into $tb_simstatus_group -radix hex
## add_wave /apatb_setMem_top/LENGTH_a -into $tb_portdepth_group -radix hex
## add_wave /apatb_setMem_top/LENGTH_b -into $tb_portdepth_group -radix hex
## add_wave /apatb_setMem_top/LENGTH_c -into $tb_portdepth_group -radix hex
## add_wave /apatb_setMem_top/LENGTH_gmem0 -into $tb_portdepth_group -radix hex
## add_wave /apatb_setMem_top/LENGTH_gmem1 -into $tb_portdepth_group -radix hex
## add_wave /apatb_setMem_top/LENGTH_gmem2 -into $tb_portdepth_group -radix hex
## add_wave /apatb_setMem_top/LENGTH_gmem3 -into $tb_portdepth_group -radix hex
## add_wave /apatb_setMem_top/LENGTH_op -into $tb_portdepth_group -radix hex
## set tbcinoutgroup [add_wave_group "C InOuts" -into $testbenchgroup]
## set tb_a__b__c__op__return_group [add_wave_group a__b__c__op__return(axi_slave) -into $tbcinoutgroup]
## add_wave /apatb_setMem_top/control_INTERRUPT -into $tb_a__b__c__op__return_group -color #ffff00 -radix hex
## add_wave /apatb_setMem_top/control_BRESP -into $tb_a__b__c__op__return_group -radix hex
## add_wave /apatb_setMem_top/control_BREADY -into $tb_a__b__c__op__return_group -color #ffff00 -radix hex
## add_wave /apatb_setMem_top/control_BVALID -into $tb_a__b__c__op__return_group -color #ffff00 -radix hex
## add_wave /apatb_setMem_top/control_RRESP -into $tb_a__b__c__op__return_group -radix hex
## add_wave /apatb_setMem_top/control_RDATA -into $tb_a__b__c__op__return_group -radix hex
## add_wave /apatb_setMem_top/control_RREADY -into $tb_a__b__c__op__return_group -color #ffff00 -radix hex
## add_wave /apatb_setMem_top/control_RVALID -into $tb_a__b__c__op__return_group -color #ffff00 -radix hex
## add_wave /apatb_setMem_top/control_ARREADY -into $tb_a__b__c__op__return_group -color #ffff00 -radix hex
## add_wave /apatb_setMem_top/control_ARVALID -into $tb_a__b__c__op__return_group -color #ffff00 -radix hex
## add_wave /apatb_setMem_top/control_ARADDR -into $tb_a__b__c__op__return_group -radix hex
## add_wave /apatb_setMem_top/control_WSTRB -into $tb_a__b__c__op__return_group -radix hex
## add_wave /apatb_setMem_top/control_WDATA -into $tb_a__b__c__op__return_group -radix hex
## add_wave /apatb_setMem_top/control_WREADY -into $tb_a__b__c__op__return_group -color #ffff00 -radix hex
## add_wave /apatb_setMem_top/control_WVALID -into $tb_a__b__c__op__return_group -color #ffff00 -radix hex
## add_wave /apatb_setMem_top/control_AWREADY -into $tb_a__b__c__op__return_group -color #ffff00 -radix hex
## add_wave /apatb_setMem_top/control_AWVALID -into $tb_a__b__c__op__return_group -color #ffff00 -radix hex
## add_wave /apatb_setMem_top/control_AWADDR -into $tb_a__b__c__op__return_group -radix hex
## set tbcoutputgroup [add_wave_group "C Outputs" -into $testbenchgroup]
## set tb_c_group [add_wave_group c(axi_master) -into $tbcoutputgroup]
## set rdata_group [add_wave_group "Read Channel" -into $tb_c_group]
## set wdata_group [add_wave_group "Write Channel" -into $tb_c_group]
## set ctrl_group [add_wave_group "Handshakes" -into $tb_c_group]
## add_wave /apatb_setMem_top/gmem2_BUSER -into $wdata_group -radix hex
## add_wave /apatb_setMem_top/gmem2_BID -into $wdata_group -radix hex
## add_wave /apatb_setMem_top/gmem2_BRESP -into $wdata_group -radix hex
## add_wave /apatb_setMem_top/gmem2_BREADY -into $ctrl_group -color #ffff00 -radix hex
## add_wave /apatb_setMem_top/gmem2_BVALID -into $ctrl_group -color #ffff00 -radix hex
## add_wave /apatb_setMem_top/gmem2_RRESP -into $rdata_group -radix hex
## add_wave /apatb_setMem_top/gmem2_RUSER -into $rdata_group -radix hex
## add_wave /apatb_setMem_top/gmem2_RID -into $rdata_group -radix hex
## add_wave /apatb_setMem_top/gmem2_RLAST -into $ctrl_group -color #ffff00 -radix hex
## add_wave /apatb_setMem_top/gmem2_RDATA -into $rdata_group -radix hex
## add_wave /apatb_setMem_top/gmem2_RREADY -into $ctrl_group -color #ffff00 -radix hex
## add_wave /apatb_setMem_top/gmem2_RVALID -into $ctrl_group -color #ffff00 -radix hex
## add_wave /apatb_setMem_top/gmem2_ARUSER -into $rdata_group -radix hex
## add_wave /apatb_setMem_top/gmem2_ARREGION -into $rdata_group -radix hex
## add_wave /apatb_setMem_top/gmem2_ARQOS -into $rdata_group -radix hex
## add_wave /apatb_setMem_top/gmem2_ARPROT -into $rdata_group -radix hex
## add_wave /apatb_setMem_top/gmem2_ARCACHE -into $rdata_group -radix hex
## add_wave /apatb_setMem_top/gmem2_ARLOCK -into $rdata_group -radix hex
## add_wave /apatb_setMem_top/gmem2_ARBURST -into $rdata_group -radix hex
## add_wave /apatb_setMem_top/gmem2_ARSIZE -into $rdata_group -radix hex
## add_wave /apatb_setMem_top/gmem2_ARLEN -into $rdata_group -radix hex
## add_wave /apatb_setMem_top/gmem2_ARID -into $rdata_group -radix hex
## add_wave /apatb_setMem_top/gmem2_ARADDR -into $rdata_group -radix hex
## add_wave /apatb_setMem_top/gmem2_ARREADY -into $ctrl_group -color #ffff00 -radix hex
## add_wave /apatb_setMem_top/gmem2_ARVALID -into $ctrl_group -color #ffff00 -radix hex
## add_wave /apatb_setMem_top/gmem2_WUSER -into $wdata_group -radix hex
## add_wave /apatb_setMem_top/gmem2_WID -into $wdata_group -radix hex
## add_wave /apatb_setMem_top/gmem2_WLAST -into $ctrl_group -color #ffff00 -radix hex
## add_wave /apatb_setMem_top/gmem2_WSTRB -into $wdata_group -radix hex
## add_wave /apatb_setMem_top/gmem2_WDATA -into $wdata_group -radix hex
## add_wave /apatb_setMem_top/gmem2_WREADY -into $ctrl_group -color #ffff00 -radix hex
## add_wave /apatb_setMem_top/gmem2_WVALID -into $ctrl_group -color #ffff00 -radix hex
## add_wave /apatb_setMem_top/gmem2_AWUSER -into $wdata_group -radix hex
## add_wave /apatb_setMem_top/gmem2_AWREGION -into $wdata_group -radix hex
## add_wave /apatb_setMem_top/gmem2_AWQOS -into $wdata_group -radix hex
## add_wave /apatb_setMem_top/gmem2_AWPROT -into $wdata_group -radix hex
## add_wave /apatb_setMem_top/gmem2_AWCACHE -into $wdata_group -radix hex
## add_wave /apatb_setMem_top/gmem2_AWLOCK -into $wdata_group -radix hex
## add_wave /apatb_setMem_top/gmem2_AWBURST -into $wdata_group -radix hex
## add_wave /apatb_setMem_top/gmem2_AWSIZE -into $wdata_group -radix hex
## add_wave /apatb_setMem_top/gmem2_AWLEN -into $wdata_group -radix hex
## add_wave /apatb_setMem_top/gmem2_AWID -into $wdata_group -radix hex
## add_wave /apatb_setMem_top/gmem2_AWADDR -into $wdata_group -radix hex
## add_wave /apatb_setMem_top/gmem2_AWREADY -into $ctrl_group -color #ffff00 -radix hex
## add_wave /apatb_setMem_top/gmem2_AWVALID -into $ctrl_group -color #ffff00 -radix hex
## set tbcinputgroup [add_wave_group "C Inputs" -into $testbenchgroup]
## set tb_op_group [add_wave_group op(axi_master) -into $tbcinputgroup]
## set rdata_group [add_wave_group "Read Channel" -into $tb_op_group]
## set wdata_group [add_wave_group "Write Channel" -into $tb_op_group]
## set ctrl_group [add_wave_group "Handshakes" -into $tb_op_group]
## add_wave /apatb_setMem_top/gmem3_BUSER -into $wdata_group -radix hex
## add_wave /apatb_setMem_top/gmem3_BID -into $wdata_group -radix hex
## add_wave /apatb_setMem_top/gmem3_BRESP -into $wdata_group -radix hex
## add_wave /apatb_setMem_top/gmem3_BREADY -into $ctrl_group -color #ffff00 -radix hex
## add_wave /apatb_setMem_top/gmem3_BVALID -into $ctrl_group -color #ffff00 -radix hex
## add_wave /apatb_setMem_top/gmem3_RRESP -into $rdata_group -radix hex
## add_wave /apatb_setMem_top/gmem3_RUSER -into $rdata_group -radix hex
## add_wave /apatb_setMem_top/gmem3_RID -into $rdata_group -radix hex
## add_wave /apatb_setMem_top/gmem3_RLAST -into $ctrl_group -color #ffff00 -radix hex
## add_wave /apatb_setMem_top/gmem3_RDATA -into $rdata_group -radix hex
## add_wave /apatb_setMem_top/gmem3_RREADY -into $ctrl_group -color #ffff00 -radix hex
## add_wave /apatb_setMem_top/gmem3_RVALID -into $ctrl_group -color #ffff00 -radix hex
## add_wave /apatb_setMem_top/gmem3_ARUSER -into $rdata_group -radix hex
## add_wave /apatb_setMem_top/gmem3_ARREGION -into $rdata_group -radix hex
## add_wave /apatb_setMem_top/gmem3_ARQOS -into $rdata_group -radix hex
## add_wave /apatb_setMem_top/gmem3_ARPROT -into $rdata_group -radix hex
## add_wave /apatb_setMem_top/gmem3_ARCACHE -into $rdata_group -radix hex
## add_wave /apatb_setMem_top/gmem3_ARLOCK -into $rdata_group -radix hex
## add_wave /apatb_setMem_top/gmem3_ARBURST -into $rdata_group -radix hex
## add_wave /apatb_setMem_top/gmem3_ARSIZE -into $rdata_group -radix hex
## add_wave /apatb_setMem_top/gmem3_ARLEN -into $rdata_group -radix hex
## add_wave /apatb_setMem_top/gmem3_ARID -into $rdata_group -radix hex
## add_wave /apatb_setMem_top/gmem3_ARADDR -into $rdata_group -radix hex
## add_wave /apatb_setMem_top/gmem3_ARREADY -into $ctrl_group -color #ffff00 -radix hex
## add_wave /apatb_setMem_top/gmem3_ARVALID -into $ctrl_group -color #ffff00 -radix hex
## add_wave /apatb_setMem_top/gmem3_WUSER -into $wdata_group -radix hex
## add_wave /apatb_setMem_top/gmem3_WID -into $wdata_group -radix hex
## add_wave /apatb_setMem_top/gmem3_WLAST -into $ctrl_group -color #ffff00 -radix hex
## add_wave /apatb_setMem_top/gmem3_WSTRB -into $wdata_group -radix hex
## add_wave /apatb_setMem_top/gmem3_WDATA -into $wdata_group -radix hex
## add_wave /apatb_setMem_top/gmem3_WREADY -into $ctrl_group -color #ffff00 -radix hex
## add_wave /apatb_setMem_top/gmem3_WVALID -into $ctrl_group -color #ffff00 -radix hex
## add_wave /apatb_setMem_top/gmem3_AWUSER -into $wdata_group -radix hex
## add_wave /apatb_setMem_top/gmem3_AWREGION -into $wdata_group -radix hex
## add_wave /apatb_setMem_top/gmem3_AWQOS -into $wdata_group -radix hex
## add_wave /apatb_setMem_top/gmem3_AWPROT -into $wdata_group -radix hex
## add_wave /apatb_setMem_top/gmem3_AWCACHE -into $wdata_group -radix hex
## add_wave /apatb_setMem_top/gmem3_AWLOCK -into $wdata_group -radix hex
## add_wave /apatb_setMem_top/gmem3_AWBURST -into $wdata_group -radix hex
## add_wave /apatb_setMem_top/gmem3_AWSIZE -into $wdata_group -radix hex
## add_wave /apatb_setMem_top/gmem3_AWLEN -into $wdata_group -radix hex
## add_wave /apatb_setMem_top/gmem3_AWID -into $wdata_group -radix hex
## add_wave /apatb_setMem_top/gmem3_AWADDR -into $wdata_group -radix hex
## add_wave /apatb_setMem_top/gmem3_AWREADY -into $ctrl_group -color #ffff00 -radix hex
## add_wave /apatb_setMem_top/gmem3_AWVALID -into $ctrl_group -color #ffff00 -radix hex
## set tb_b_group [add_wave_group b(axi_master) -into $tbcinputgroup]
## set rdata_group [add_wave_group "Read Channel" -into $tb_b_group]
## set wdata_group [add_wave_group "Write Channel" -into $tb_b_group]
## set ctrl_group [add_wave_group "Handshakes" -into $tb_b_group]
## add_wave /apatb_setMem_top/gmem1_BUSER -into $wdata_group -radix hex
## add_wave /apatb_setMem_top/gmem1_BID -into $wdata_group -radix hex
## add_wave /apatb_setMem_top/gmem1_BRESP -into $wdata_group -radix hex
## add_wave /apatb_setMem_top/gmem1_BREADY -into $ctrl_group -color #ffff00 -radix hex
## add_wave /apatb_setMem_top/gmem1_BVALID -into $ctrl_group -color #ffff00 -radix hex
## add_wave /apatb_setMem_top/gmem1_RRESP -into $rdata_group -radix hex
## add_wave /apatb_setMem_top/gmem1_RUSER -into $rdata_group -radix hex
## add_wave /apatb_setMem_top/gmem1_RID -into $rdata_group -radix hex
## add_wave /apatb_setMem_top/gmem1_RLAST -into $ctrl_group -color #ffff00 -radix hex
## add_wave /apatb_setMem_top/gmem1_RDATA -into $rdata_group -radix hex
## add_wave /apatb_setMem_top/gmem1_RREADY -into $ctrl_group -color #ffff00 -radix hex
## add_wave /apatb_setMem_top/gmem1_RVALID -into $ctrl_group -color #ffff00 -radix hex
## add_wave /apatb_setMem_top/gmem1_ARUSER -into $rdata_group -radix hex
## add_wave /apatb_setMem_top/gmem1_ARREGION -into $rdata_group -radix hex
## add_wave /apatb_setMem_top/gmem1_ARQOS -into $rdata_group -radix hex
## add_wave /apatb_setMem_top/gmem1_ARPROT -into $rdata_group -radix hex
## add_wave /apatb_setMem_top/gmem1_ARCACHE -into $rdata_group -radix hex
## add_wave /apatb_setMem_top/gmem1_ARLOCK -into $rdata_group -radix hex
## add_wave /apatb_setMem_top/gmem1_ARBURST -into $rdata_group -radix hex
## add_wave /apatb_setMem_top/gmem1_ARSIZE -into $rdata_group -radix hex
## add_wave /apatb_setMem_top/gmem1_ARLEN -into $rdata_group -radix hex
## add_wave /apatb_setMem_top/gmem1_ARID -into $rdata_group -radix hex
## add_wave /apatb_setMem_top/gmem1_ARADDR -into $rdata_group -radix hex
## add_wave /apatb_setMem_top/gmem1_ARREADY -into $ctrl_group -color #ffff00 -radix hex
## add_wave /apatb_setMem_top/gmem1_ARVALID -into $ctrl_group -color #ffff00 -radix hex
## add_wave /apatb_setMem_top/gmem1_WUSER -into $wdata_group -radix hex
## add_wave /apatb_setMem_top/gmem1_WID -into $wdata_group -radix hex
## add_wave /apatb_setMem_top/gmem1_WLAST -into $ctrl_group -color #ffff00 -radix hex
## add_wave /apatb_setMem_top/gmem1_WSTRB -into $wdata_group -radix hex
## add_wave /apatb_setMem_top/gmem1_WDATA -into $wdata_group -radix hex
## add_wave /apatb_setMem_top/gmem1_WREADY -into $ctrl_group -color #ffff00 -radix hex
## add_wave /apatb_setMem_top/gmem1_WVALID -into $ctrl_group -color #ffff00 -radix hex
## add_wave /apatb_setMem_top/gmem1_AWUSER -into $wdata_group -radix hex
## add_wave /apatb_setMem_top/gmem1_AWREGION -into $wdata_group -radix hex
## add_wave /apatb_setMem_top/gmem1_AWQOS -into $wdata_group -radix hex
## add_wave /apatb_setMem_top/gmem1_AWPROT -into $wdata_group -radix hex
## add_wave /apatb_setMem_top/gmem1_AWCACHE -into $wdata_group -radix hex
## add_wave /apatb_setMem_top/gmem1_AWLOCK -into $wdata_group -radix hex
## add_wave /apatb_setMem_top/gmem1_AWBURST -into $wdata_group -radix hex
## add_wave /apatb_setMem_top/gmem1_AWSIZE -into $wdata_group -radix hex
## add_wave /apatb_setMem_top/gmem1_AWLEN -into $wdata_group -radix hex
## add_wave /apatb_setMem_top/gmem1_AWID -into $wdata_group -radix hex
## add_wave /apatb_setMem_top/gmem1_AWADDR -into $wdata_group -radix hex
## add_wave /apatb_setMem_top/gmem1_AWREADY -into $ctrl_group -color #ffff00 -radix hex
## add_wave /apatb_setMem_top/gmem1_AWVALID -into $ctrl_group -color #ffff00 -radix hex
## set tb_a_group [add_wave_group a(axi_master) -into $tbcinputgroup]
## set rdata_group [add_wave_group "Read Channel" -into $tb_a_group]
## set wdata_group [add_wave_group "Write Channel" -into $tb_a_group]
## set ctrl_group [add_wave_group "Handshakes" -into $tb_a_group]
## add_wave /apatb_setMem_top/gmem0_BUSER -into $wdata_group -radix hex
## add_wave /apatb_setMem_top/gmem0_BID -into $wdata_group -radix hex
## add_wave /apatb_setMem_top/gmem0_BRESP -into $wdata_group -radix hex
## add_wave /apatb_setMem_top/gmem0_BREADY -into $ctrl_group -color #ffff00 -radix hex
## add_wave /apatb_setMem_top/gmem0_BVALID -into $ctrl_group -color #ffff00 -radix hex
## add_wave /apatb_setMem_top/gmem0_RRESP -into $rdata_group -radix hex
## add_wave /apatb_setMem_top/gmem0_RUSER -into $rdata_group -radix hex
## add_wave /apatb_setMem_top/gmem0_RID -into $rdata_group -radix hex
## add_wave /apatb_setMem_top/gmem0_RLAST -into $ctrl_group -color #ffff00 -radix hex
## add_wave /apatb_setMem_top/gmem0_RDATA -into $rdata_group -radix hex
## add_wave /apatb_setMem_top/gmem0_RREADY -into $ctrl_group -color #ffff00 -radix hex
## add_wave /apatb_setMem_top/gmem0_RVALID -into $ctrl_group -color #ffff00 -radix hex
## add_wave /apatb_setMem_top/gmem0_ARUSER -into $rdata_group -radix hex
## add_wave /apatb_setMem_top/gmem0_ARREGION -into $rdata_group -radix hex
## add_wave /apatb_setMem_top/gmem0_ARQOS -into $rdata_group -radix hex
## add_wave /apatb_setMem_top/gmem0_ARPROT -into $rdata_group -radix hex
## add_wave /apatb_setMem_top/gmem0_ARCACHE -into $rdata_group -radix hex
## add_wave /apatb_setMem_top/gmem0_ARLOCK -into $rdata_group -radix hex
## add_wave /apatb_setMem_top/gmem0_ARBURST -into $rdata_group -radix hex
## add_wave /apatb_setMem_top/gmem0_ARSIZE -into $rdata_group -radix hex
## add_wave /apatb_setMem_top/gmem0_ARLEN -into $rdata_group -radix hex
## add_wave /apatb_setMem_top/gmem0_ARID -into $rdata_group -radix hex
## add_wave /apatb_setMem_top/gmem0_ARADDR -into $rdata_group -radix hex
## add_wave /apatb_setMem_top/gmem0_ARREADY -into $ctrl_group -color #ffff00 -radix hex
## add_wave /apatb_setMem_top/gmem0_ARVALID -into $ctrl_group -color #ffff00 -radix hex
## add_wave /apatb_setMem_top/gmem0_WUSER -into $wdata_group -radix hex
## add_wave /apatb_setMem_top/gmem0_WID -into $wdata_group -radix hex
## add_wave /apatb_setMem_top/gmem0_WLAST -into $ctrl_group -color #ffff00 -radix hex
## add_wave /apatb_setMem_top/gmem0_WSTRB -into $wdata_group -radix hex
## add_wave /apatb_setMem_top/gmem0_WDATA -into $wdata_group -radix hex
## add_wave /apatb_setMem_top/gmem0_WREADY -into $ctrl_group -color #ffff00 -radix hex
## add_wave /apatb_setMem_top/gmem0_WVALID -into $ctrl_group -color #ffff00 -radix hex
## add_wave /apatb_setMem_top/gmem0_AWUSER -into $wdata_group -radix hex
## add_wave /apatb_setMem_top/gmem0_AWREGION -into $wdata_group -radix hex
## add_wave /apatb_setMem_top/gmem0_AWQOS -into $wdata_group -radix hex
## add_wave /apatb_setMem_top/gmem0_AWPROT -into $wdata_group -radix hex
## add_wave /apatb_setMem_top/gmem0_AWCACHE -into $wdata_group -radix hex
## add_wave /apatb_setMem_top/gmem0_AWLOCK -into $wdata_group -radix hex
## add_wave /apatb_setMem_top/gmem0_AWBURST -into $wdata_group -radix hex
## add_wave /apatb_setMem_top/gmem0_AWSIZE -into $wdata_group -radix hex
## add_wave /apatb_setMem_top/gmem0_AWLEN -into $wdata_group -radix hex
## add_wave /apatb_setMem_top/gmem0_AWID -into $wdata_group -radix hex
## add_wave /apatb_setMem_top/gmem0_AWADDR -into $wdata_group -radix hex
## add_wave /apatb_setMem_top/gmem0_AWREADY -into $ctrl_group -color #ffff00 -radix hex
## add_wave /apatb_setMem_top/gmem0_AWVALID -into $ctrl_group -color #ffff00 -radix hex
## save_wave_config setMem.wcfg
## run all
Note: simulation done!
Time: 4005 ns  Iteration: 1  Process: /apatb_setMem_top/generate_sim_done_proc  File: C:/Users/marco/Desktop/NECST/NL2/AXI_M/AXI_M/solution1/sim/vhdl/setMem.autotb.vhd
Failure: NORMAL EXIT (note: failure is to force the simulator to stop)
Time: 4005 ns  Iteration: 1  Process: /apatb_setMem_top/generate_sim_done_proc  File: C:/Users/marco/Desktop/NECST/NL2/AXI_M/AXI_M/solution1/sim/vhdl/setMem.autotb.vhd
$finish called at time : 4005 ns : File "C:/Users/marco/Desktop/NECST/NL2/AXI_M/AXI_M/solution1/sim/vhdl/setMem.autotb.vhd" Line 1651
## quit
INFO: [Common 17-206] Exiting xsim at Sun Apr 14 18:38:59 2024...


A = 0 B = 0 RES = 27, OP = 0 
A = 2 B = 1 RES = 28, OP = 1 
A = 4 B = 2 RES = 8, OP = 2 
A = 6 B = 3 RES = 6, OP = 3 
A = 8 B = 4 RES = 4, OP = 4 
A = 10 B = 5 RES = 2, OP = 5 
A = 12 B = 6 RES = 18, OP = 6 
A = 14 B = 7 RES = 7, OP = 7 
A = 16 B = 8 RES = 128, OP = 8 
A = 18 B = 9 RES = 2, OP = 9 
A = 20 B = 10 RES = 47, OP = 0 
A = 22 B = 11 RES = 38, OP = 1 
A = 24 B = 12 RES = 48, OP = 2 
A = 26 B = 13 RES = 26, OP = 3 
A = 28 B = 14 RES = 14, OP = 4 
A = 30 B = 15 RES = 7, OP = 5 
A = 32 B = 16 RES = 48, OP = 6 
A = 34 B = 17 RES = 17, OP = 7 
A = 36 B = 18 RES = 648, OP = 8 
A = 38 B = 19 RES = 2, OP = 9 
A = 40 B = 20 RES = 67, OP = 0 
A = 42 B = 21 RES = 48, OP = 1 
A = 44 B = 22 RES = 88, OP = 2 
A = 46 B = 23 RES = 46, OP = 3 
A = 48 B = 24 RES = 24, OP = 4 
A = 50 B = 25 RES = 12, OP = 5 
A = 52 B = 26 RES = 78, OP = 6 
A = 54 B = 27 RES = 27, OP = 7 
A = 56 B = 28 RES = 1568, OP = 8 
A = 58 B = 29 RES = 2, OP = 9 
A = 60 B = 30 RES = 87, OP = 0 
A = 62 B = 31 RES = 58, OP = 1 
A = 64 B = 32 RES = 128, OP = 2 
A = 66 B = 33 RES = 66, OP = 3 
A = 68 B = 34 RES = 34, OP = 4 
A = 70 B = 35 RES = 17, OP = 5 
A = 72 B = 36 RES = 108, OP = 6 
A = 74 B = 37 RES = 37, OP = 7 
A = 76 B = 38 RES = 2888, OP = 8 
A = 78 B = 39 RES = 2, OP = 9 
A = 80 B = 40 RES = 107, OP = 0 
A = 82 B = 41 RES = 68, OP = 1 
A = 84 B = 42 RES = 168, OP = 2 
A = 86 B = 43 RES = 86, OP = 3 
A = 88 B = 44 RES = 44, OP = 4 
A = 90 B = 45 RES = 22, OP = 5 
A = 92 B = 46 RES = 138, OP = 6 
A = 94 B = 47 RES = 47, OP = 7 
A = 96 B = 48 RES = 4608, OP = 8 
A = 98 B = 49 RES = 2, OP = 9 


INFO: [COSIM-1000] *** C/RTL co-simulation finished: PASS ***
INFO: [COSIM-211] II is measurable only when transaction number is greater than 1 in RTL simulation. Otherwise, they will be marked as all NA. If user wants to calculate them, please make sure there are at least 2 transactions in RTL simulation.
